# AMBA Bus Protocols: APB, AHB, and AXI -- The Complete Interview Bible

## Table of Contents
1. AMBA Protocol Overview
2. APB -- Deep Dive with State Machine and Waveforms
3. AHB -- Pipelining, Bursts, and Arbitration
4. AXI4 -- Complete Protocol Specification
5. AXI Outstanding and Interleaving
6. AXI4-Lite
7. AXI4-Stream
8. Interconnect and Crossbar Design
9. Bus Bridge Design (AXI-to-APB, AHB-to-AXI)
10. Performance Analysis and Bandwidth Calculations
11. Interview Q&A (20+ Questions)

---

## 1. AMBA Protocol Overview

| Protocol    | Version | Channels | Pipelining    | Burst  | Outstanding | OoO | Use Case                |
|-------------|---------|----------|---------------|--------|-------------|-----|-------------------------|
| APB         | AMBA 3/4| 1        | None          | No     | No          | No  | Config registers, UART  |
| AHB         | AMBA 2/3| 1        | Addr-pipeline | Yes    | No          | No  | SRAM, DMA (legacy)      |
| AHB-Lite    | AMBA 3  | 1        | Addr-pipeline | Yes    | No          | No  | Single-master subsystem |
| AXI4        | AMBA 4  | 5        | Full          | Yes    | Yes         | Yes | DDR, GPU, high-perf     |
| AXI4-Lite   | AMBA 4  | 5        | Full          | No     | Optional    | No  | Simple register I/F     |
| AXI4-Stream | AMBA 4  | 1        | N/A           | N/A    | N/A         | N/A | Video, DSP, networking  |
| ACE         | AMBA 4  | 5+snoop  | Full          | Yes    | Yes         | Yes | Coherent multi-core     |
| CHI         | AMBA 5  | Channels | Full          | Yes    | Yes         | Yes | Scalable coherent NoC   |

---

## 2. APB (Advanced Peripheral Bus) -- Deep Dive

### 2.1 Complete Signal List

| Signal      | Width | Direction       | Description                                |
|-------------|-------|-----------------|---------------------------------------------|
| PCLK        | 1     | Clock           | Bus clock                                   |
| PRESETn     | 1     | Reset           | Active-low reset                             |
| PADDR       | 32    | Master->Slave   | Address bus                                  |
| PPROT       | 3     | Master->Slave   | Protection (APB4): [2]=instruction, [1]=nonsecure, [0]=privileged |
| PSEL        | 1     | Decoder->Slave  | Slave select (one per slave)                 |
| PENABLE     | 1     | Master->Slave   | Enable (2nd phase indicator)                 |
| PWRITE      | 1     | Master->Slave   | 1=write, 0=read                              |
| PWDATA      | 32    | Master->Slave   | Write data                                   |
| PSTRB       | 4     | Master->Slave   | Write strobes (APB4): byte enables            |
| PRDATA      | 32    | Slave->Master   | Read data                                    |
| PREADY      | 1     | Slave->Master   | Ready (can insert wait states when low)       |
| PSLVERR     | 1     | Slave->Master   | Transfer error                                |

### 2.2 APB State Machine (Complete)

```
                        ┌────────────────┐
                        │                │
                ┌──────>│     IDLE       │<──────────────────────┐
                │       │  PSEL=0        │                       │
                │       │  PENABLE=0     │                       │
                │       └───────┬────────┘                       │
                │               │                                │
                │        Transfer requested                      │
                │               │                                │
                │       ┌───────v────────┐                       │
                │       │                │                       │
                │       │    SETUP       │   1 cycle exactly     │
                │       │  PSEL=1        │                       │
                │       │  PENABLE=0     │                       │
                │       │  PADDR valid   │                       │
                │       │  PWRITE valid  │                       │
                │       │  PWDATA valid  │ (if write)            │
                │       └───────┬────────┘                       │
                │               │                                │
                │          Always (1 cycle)                       │
                │               │                                │
                │       ┌───────v────────┐                       │
                │       │                │     PREADY=0          │
                │       │    ACCESS      │────────────┐          │
                │       │  PSEL=1        │            │          │
                │       │  PENABLE=1     │<───────────┘          │
                │       │                │                       │
                │       └───────┬────────┘                       │
                │               │                                │
                │          PREADY=1                               │
                │          (transfer complete)                    │
                │               │                                │
                │    ┌──────────┴──────────┐                     │
                │    │                     │                     │
                │  No more              Another                  │
                │  transfers            transfer                 │
                │    │                     │                     │
                └────┘                     └──> SETUP (back-to-back)
                                                directly (no IDLE)
```

### 2.3 APB Waveforms

**Write without wait states:**

```
Cycle:      1         2         3
PCLK:    _|‾‾‾|___|‾‾‾|___|‾‾‾|___
PSEL:    ___|‾‾‾‾‾‾‾‾‾‾‾‾‾|_______
PENABLE: _________|‾‾‾‾‾‾‾|_______
PADDR:   ---<  ADDR  >-------------
PWRITE:  ___|‾‾‾‾‾‾‾‾‾‾‾‾‾|_______
PWDATA:  ---<  DATA  >-------------
PREADY:  ‾‾‾‾‾‾‾‾‾‾‾‾‾‾‾‾‾‾‾‾‾‾‾  (slave always ready, tied high)
State:      IDLE  SETUP  ACCESS  IDLE
```

**Read with 2 wait states:**

```
Cycle:      1         2         3         4         5
PCLK:    _|‾‾‾|___|‾‾‾|___|‾‾‾|___|‾‾‾|___|‾‾‾|___
PSEL:    ___|‾‾‾‾‾‾‾‾‾‾‾‾‾‾‾‾‾‾‾‾‾‾‾‾‾‾‾|_______
PENABLE: _________|‾‾‾‾‾‾‾‾‾‾‾‾‾‾‾‾‾‾‾‾‾|_______
PADDR:   ---<  ADDR  >-----------------------------
PWRITE:  ___________________________________________  (low = read)
PRDATA:  ‾‾‾‾‾‾‾‾‾‾‾‾‾‾‾‾‾‾‾‾‾‾‾‾‾<  DATA  >‾‾‾
PREADY:  _________|___|___|‾‾‾‾‾‾‾|_______
                   ^   ^   ^
                   |   |   +-- Slave ready: transfer completes
                   |   +------ Wait state 2
                   +---------- Wait state 1
State:      IDLE SETUP ----ACCESS----- IDLE
```

**Write with PSLVERR:**

```
PSLVERR is sampled at the same time as PREADY (on the rising edge of
PCLK when PENABLE=1 and PREADY=1). It indicates the transfer failed
(e.g., write to read-only register, access to undefined address).

PSLVERR:  _________|‾‾‾‾‾‾‾|_______
PREADY:   _________|‾‾‾‾‾‾‾|_______
  Both assert on the same cycle. Master decides how to handle the error
  (ignore, retry, interrupt, etc.). APB does NOT define error recovery.
```

### 2.4 APB Bridge Design (from AXI/AHB)

```
                    ┌─────────────────────────┐
  AHB/AXI ────────>│     APB Bridge            │────> APB Slave 0
  Master side      │                           │────> APB Slave 1
                   │  - Address decoder        │────> APB Slave 2
                   │  - State machine          │
                   │  - Wait state generation  │
                   └─────────────────────────┘

The bridge:
  1. Accepts an AHB/AXI transaction (address phase)
  2. Decodes address to select the appropriate PSEL
  3. Drives PADDR, PWRITE, PWDATA in SETUP phase
  4. Asserts PENABLE in ACCESS phase
  5. Waits for PREADY from slave
  6. Returns HRDATA/RDATA and HRESP/BRESP to the master side
  7. If the AXI side has burst, the bridge generates multiple APB transfers
```

---

## 3. AHB (Advanced High-Performance Bus) -- Deep Dive

### 3.1 Complete Signal List

| Signal       | Width | Direction       | Description                                  |
|--------------|-------|-----------------|----------------------------------------------|
| HCLK         | 1     | Clock           | Bus clock                                    |
| HRESETn      | 1     | Reset           | Active-low reset                              |
| HADDR        | 32    | Master->Slave   | Address bus                                   |
| HTRANS       | 2     | Master->Slave   | Transfer type                                 |
| HWRITE       | 1     | Master->Slave   | 1=write, 0=read                               |
| HSIZE        | 3     | Master->Slave   | Transfer size (2^HSIZE bytes)                 |
| HBURST       | 3     | Master->Slave   | Burst type                                    |
| HPROT        | 4     | Master->Slave   | Protection control                            |
| HWDATA       | 32    | Master->Slave   | Write data (data phase)                       |
| HRDATA       | 32    | Slave->Master   | Read data (data phase)                        |
| HREADY       | 1     | Slave->Master   | Ready (transfers/wait)                        |
| HRESP        | 2     | Slave->Master   | Response (OKAY/ERROR/RETRY/SPLIT)             |
| HSELx        | 1     | Decoder->Slave  | Slave select                                  |
| HMASTLOCK    | 1     | Master->Slave   | Locked access                                 |
| HMASTER      | 4     | Arbiter->Slave  | Master number                                 |
| HBUSREQ      | 1     | Master->Arbiter | Bus request                                   |
| HLOCK        | 1     | Master->Arbiter | Locked transfer request                       |
| HGRANT       | 1     | Arbiter->Master | Bus grant                                     |

### 3.2 HTRANS Encoding -- Detailed

| HTRANS[1:0] | Name   | Description                                                |
|-------------|--------|------------------------------------------------------------|
| 00          | IDLE   | No transfer. Master is idle or waiting. Slave ignores.      |
| 01          | BUSY   | Master is in a burst but cannot continue this cycle. Slave must wait. Address and control are meaningless. Does NOT end the burst. |
| 10          | NONSEQ | First transfer of a burst, or a single transfer. New address/control. Not related to previous transfer. |
| 11          | SEQ    | Continuation of a burst. Address = previous + size. Control same as NONSEQ. |

### 3.3 AHB Pipelining -- Detailed Waveform

```
The key to AHB performance: address phase of transfer N+1 overlaps
with data phase of transfer N.

Cycle:       1       2       3       4       5       6
HADDR:     [A0]    [A1]    [A2]    [A3]
HTRANS:    [NONSEQ][SEQ]   [SEQ]   [SEQ]
HWDATA:            [D0]    [D1]    [D2]    [D3]
HREADY:      1       1       1       1       1

Transfer 0: Address in cycle 1, Data in cycle 2
Transfer 1: Address in cycle 2, Data in cycle 3
Transfer 2: Address in cycle 3, Data in cycle 4
Transfer 3: Address in cycle 4, Data in cycle 5

Effective bandwidth: 1 transfer per clock cycle (after initial 1-cycle latency)
Without pipelining (APB-style): 2 cycles per transfer -> half the bandwidth
```

**With wait states:**

```
Cycle:       1       2       3       4       5       6       7
HADDR:     [A0]    [A1]    [A1]    [A2]    [A3]
HTRANS:    [NONSEQ][SEQ]   [SEQ]   [SEQ]   [SEQ]
HWDATA:            [D0]    [D0]    [D1]    [D2]    [D3]
HREADY:      1       0       1       1       1       1

Cycle 2-3: HREADY=0, slave inserts wait state.
  - Master HOLDS address A1, data D0 (must remain stable!)
  - All pipeline stages stall
  - Slave completes the slow operation in cycle 3 (HREADY=1)
```

### 3.4 Burst Types -- Address Calculation Examples

**HSIZE encoding:**

| HSIZE | Size    | Bytes |
|-------|---------|-------|
| 000   | Byte    | 1     |
| 001   | Halfword| 2     |
| 010   | Word    | 4     |
| 011   | Dword   | 8     |

**INCR4 burst (4-beat incrementing) with HSIZE=010 (word), start address 0x1000:**

```
Beat 0: Address = 0x1000  (NONSEQ)
Beat 1: Address = 0x1004  (SEQ)  (+4 bytes)
Beat 2: Address = 0x1008  (SEQ)  (+4 bytes)
Beat 3: Address = 0x100C  (SEQ)  (+4 bytes)
```

**WRAP4 burst with HSIZE=010 (word), start address 0x1004:**

```
Wrap boundary: aligned to (burst_length * size) = 4 * 4 = 16 bytes
Wrap boundary = 0x1000 (start address rounded down to 16-byte boundary)
Wrap range: 0x1000 to 0x100F

Beat 0: Address = 0x1004  (NONSEQ) -- start here (critical word first)
Beat 1: Address = 0x1008  (SEQ)
Beat 2: Address = 0x100C  (SEQ)
Beat 3: Address = 0x1000  (SEQ)  -- WRAPS back to boundary start!

Use case: Cache line fill starting from the critical word.
  CPU needs word at 0x1004, but cache line is 16 bytes (0x1000-0x100F).
  WRAP4 fetches 0x1004 first (CPU can proceed immediately),
  then fills the rest of the line (0x1008, 0x100C, 0x1000).
```

**WRAP8 burst with HSIZE=010 (word), start address 0x1014:**

```
Wrap size = 8 * 4 = 32 bytes
Wrap boundary = 0x1000 (aligned to 32-byte boundary)
Wrap range: 0x1000 to 0x101F

Beat 0: 0x1014  (NONSEQ)
Beat 1: 0x1018  (SEQ)
Beat 2: 0x101C  (SEQ)
Beat 3: 0x1000  (SEQ)  -- WRAP!
Beat 4: 0x1004  (SEQ)
Beat 5: 0x1008  (SEQ)
Beat 6: 0x100C  (SEQ)
Beat 7: 0x1010  (SEQ)
```

### 3.5 Split and Retry -- Why They Exist

**Problem:** A slow slave (e.g., external flash controller) takes 100 cycles to respond. During this time, the bus is blocked -- no other master can use it. This wastes bus bandwidth.

**RETRY response:**

```
Cycle:    1      2      3      4      5      ...
HADDR:   [A0]
HTRANS:  [NONSEQ]
HREADY:    1      0      1                   <- 2-cycle error response
HRESP:            [RETRY][RETRY]             <- Must be 2 cycles!

After RETRY:
  - Master must retry the same transfer
  - Arbiter may re-grant the bus to a different master first
  - Original master retries when re-granted
```

**SPLIT response:**

```
Same as RETRY, but the slave tells the arbiter:
  "I will signal you (via HSPLIT) when I'm ready for this master."

The arbiter:
  1. Records which master was split
  2. Grants bus to other masters
  3. When slave signals HSPLIT for the original master, re-grants to it

Advantage over RETRY: The split master doesn't keep retrying and wasting
bus cycles. The arbiter only re-grants when the slave is actually ready.
```

### 3.6 AHB-Lite Simplification

```
AHB-Lite removes:
  - HBUSREQ, HGRANT, HLOCK (no arbitration, single master)
  - SPLIT/RETRY (HRESP is 1-bit: 0=OKAY, 1=ERROR)
  - HMASTER (only one master)

AHB-Lite is the most widely used AHB variant in modern SoCs.
Each subsystem typically has one AHB-Lite master with multiple slaves.
```

### 3.7 AHB Default Slave

```
Required by the spec: A default slave responds to accesses directed at
unmapped address regions. It returns an ERROR response to prevent bus hangs.

Without a default slave:
  Access to unmapped address -> no slave drives HREADY -> bus hangs forever

Default slave implementation:
  - Selected when no other slave is selected (decoder generates default HSEL)
  - Always returns HREADY=1 and HRESP=ERROR
  - Very simple (2-3 gates)
```

---

## 4. AXI4 -- Complete Protocol Specification

### 4.1 Five Independent Channels with All Signals

**Write Address Channel (AW):**

| Signal    | Width       | Description                                    |
|-----------|-------------|------------------------------------------------|
| AWID      | ID_WIDTH    | Write transaction ID                           |
| AWADDR    | ADDR_WIDTH  | Write start address                            |
| AWLEN     | 8           | Burst length - 1 (0=1 beat, 255=256 beats)    |
| AWSIZE    | 3           | Bytes per beat = 2^AWSIZE                      |
| AWBURST   | 2           | Burst type: FIXED(00), INCR(01), WRAP(10)      |
| AWLOCK    | 1           | Lock type: normal(0), exclusive(1)              |
| AWCACHE   | 4           | Cache attributes (bufferable, cacheable, etc.)  |
| AWPROT    | 3           | Protection: [2]instr, [1]nonsecure, [0]priv     |
| AWQOS     | 4           | Quality of Service (0=lowest, 15=highest)       |
| AWREGION  | 4           | Region identifier                               |
| AWUSER    | USER_WIDTH  | User-defined signals                            |
| AWVALID   | 1           | Address valid                                   |
| AWREADY   | 1           | Slave ready to accept address                   |

**Write Data Channel (W):**

| Signal    | Width       | Description                                    |
|-----------|-------------|------------------------------------------------|
| WDATA     | DATA_WIDTH  | Write data (32, 64, 128, 256, 512, 1024 bits) |
| WSTRB     | DATA_W/8    | Write byte strobes (1 bit per byte)            |
| WLAST     | 1           | Last beat of write burst                       |
| WUSER     | USER_WIDTH  | User-defined signals                           |
| WVALID    | 1           | Data valid                                     |
| WREADY    | 1           | Slave ready to accept data                     |

**Write Response Channel (B):**

| Signal    | Width       | Description                                    |
|-----------|-------------|------------------------------------------------|
| BID       | ID_WIDTH    | Write response ID (matches AWID)               |
| BRESP     | 2           | Response: OKAY(00), EXOKAY(01), SLVERR(10), DECERR(11) |
| BUSER     | USER_WIDTH  | User-defined                                   |
| BVALID    | 1           | Response valid                                 |
| BREADY    | 1           | Master ready to accept response                |

**Read Address Channel (AR):**

| Signal    | Width       | Description                                    |
|-----------|-------------|------------------------------------------------|
| ARID      | ID_WIDTH    | Read transaction ID                            |
| ARADDR    | ADDR_WIDTH  | Read start address                             |
| ARLEN     | 8           | Burst length - 1                               |
| ARSIZE    | 3           | Bytes per beat = 2^ARSIZE                      |
| ARBURST   | 2           | Burst type                                     |
| ARLOCK    | 1           | Lock type                                      |
| ARCACHE   | 4           | Cache attributes                               |
| ARPROT    | 3           | Protection                                     |
| ARQOS     | 4           | QoS                                            |
| ARREGION  | 4           | Region identifier                              |
| ARUSER    | USER_WIDTH  | User-defined                                   |
| ARVALID   | 1           | Address valid                                  |
| ARREADY   | 1           | Slave ready                                    |

**Read Data Channel (R):**

| Signal    | Width       | Description                                    |
|-----------|-------------|------------------------------------------------|
| RID       | ID_WIDTH    | Read data ID (matches ARID)                    |
| RDATA     | DATA_WIDTH  | Read data                                      |
| RRESP     | 2           | Response per beat                              |
| RLAST     | 1           | Last beat of read burst                        |
| RUSER     | USER_WIDTH  | User-defined                                   |
| RVALID    | 1           | Data valid                                     |
| RREADY    | 1           | Master ready to accept data                    |

### 4.2 Handshake Rules -- Critical for Correct Implementation

**Rule 1: VALID must NOT depend on READY.**

```
The source must assert VALID when it has data/address to send,
REGARDLESS of whether READY is asserted. VALID cannot wait for READY.

VALID ────────────────>  (asserted independently)
                         Transfer happens here
READY ────────────────>  (may or may not be asserted)
         ^
         |
    Both high on rising clock edge = transfer complete
```

**Why this rule exists:** If VALID waits for READY, and READY waits for VALID, you get a deadlock. The spec breaks the circular dependency by requiring VALID to go first.

**Rule 2: READY MAY depend on VALID.**

```
This is allowed:
  Slave sees VALID=1 -> asserts READY=1 on the same cycle
  Transfer completes in 1 cycle (zero-wait-state)

But this creates a combinational path from VALID to READY,
which can be a timing issue. Many slave implementations
register READY to break this path (at the cost of 1 cycle latency).
```

**Rule 3: Once VALID is asserted, it must stay asserted until handshake completes.**

```
VALID: _____|‾‾‾‾‾‾‾‾‾‾‾‾‾‾|_____
READY: _______________|‾‾‾‾|_____
                        ^ transfer

VALID cannot go low before READY goes high!
Signal values (AWADDR, WDATA, etc.) must also remain stable while
VALID is high and READY is low.
```

### 4.3 VALID/READY Timing Diagrams

**Case 1: VALID before READY (most common)**

```
Cycle:     1     2     3     4
VALID:   __|‾‾‾‾‾‾‾‾‾‾‾‾‾|__
READY:   ________|‾‾‾‾‾‾‾|__
DATA:    --< STABLE DATA  >--
              ^           ^
              |           +-- Transfer completes (cycle 3 rising edge)
              +-------------- VALID asserted, data stable
```

**Case 2: READY before VALID**

```
Cycle:     1     2     3     4
READY:   __|‾‾‾‾‾‾‾‾‾‾‾‾‾‾‾‾  (slave always ready)
VALID:   ________|‾‾‾|________
DATA:    --------< D >--------
                   ^
                   +-- Transfer completes immediately (cycle 3)
```

**Case 3: Simultaneous**

```
Cycle:     1     2     3
VALID:   __|‾‾‾|________
READY:   __|‾‾‾|________
DATA:    --< D >--------
            ^
            +-- Transfer on cycle 2 rising edge (1-cycle transfer)
```

### 4.4 Ordering Model

**Write ordering rules:**
- Write data must follow write addresses in the SAME ORDER (AXI4: no write interleaving).
- Write responses (B channel) for transactions with the SAME ID must return in order.
- Write responses with DIFFERENT IDs may return in any order.

**Read ordering rules:**
- Read data for transactions with the SAME ID must return in order.
- Read data with DIFFERENT IDs may return in any order (out-of-order).
- Each read data beat has an RID to identify which transaction it belongs to.

**Read-Write ordering:**
- There is NO ordering guarantee between reads and writes (even with the same ID).
- If ordering is needed, the master must wait for the write response before issuing the read (or vice versa).
- Memory barriers in software (e.g., DMB on ARM) enforce this at the system level.

### 4.5 Burst Address Calculation

**INCR burst:**

```
Address_N = Start_Address + N * Number_Bytes

where Number_Bytes = 2^AXSIZE

Example: ARADDR=0x1000, ARSIZE=3 (8 bytes), ARLEN=3 (4 beats)
  Beat 0: 0x1000
  Beat 1: 0x1008
  Beat 2: 0x1010
  Beat 3: 0x1018
```

**WRAP burst:**

```
Step 1: Calculate number of bytes per beat: Number_Bytes = 2^AXSIZE
Step 2: Calculate total burst size: Burst_Length = AXLEN + 1
Step 3: Calculate wrap boundary:
  Wrap_Boundary = (INT(Start_Address / (Number_Bytes * Burst_Length))) * Number_Bytes * Burst_Length

Step 4: Calculate addresses:
  If Address_N < Wrap_Boundary + (Number_Bytes * Burst_Length):
    Address_N = Start_Address + N * Number_Bytes
  Else:
    Address_N wraps to Wrap_Boundary

Example: ARADDR=0x34, ARSIZE=2 (4 bytes), ARLEN=3 (4 beats, WRAP4)
  Number_Bytes = 4
  Burst_Length = 4
  Wrap size = 4 * 4 = 16 bytes
  Wrap_Boundary = INT(0x34 / 16) * 16 = INT(3.25) * 16 = 3 * 16 = 0x30
  Wrap range: 0x30 to 0x3F

  Beat 0: 0x34  (start)
  Beat 1: 0x38  (+4)
  Beat 2: 0x3C  (+4)
  Beat 3: 0x30  (WRAP! back to boundary)
```

### 4.6 Narrow Transfers and Byte Strobes (WSTRB)

A narrow transfer occurs when AWSIZE < data bus width.

```
Example: 32-bit write on a 64-bit data bus (AWSIZE=2, bus=64 bits)

WSTRB for 64-bit bus = 8 bits (1 per byte lane)

Beat at address 0x1000 (lower 4 bytes of 64-bit lane):
  WSTRB = 8'b0000_1111  (bytes 0-3 active, bytes 4-7 inactive)
  WDATA = {32'hXXXX_XXXX, 32'h12345678}

Beat at address 0x1004 (upper 4 bytes):
  WSTRB = 8'b1111_0000  (bytes 4-7 active, bytes 0-3 inactive)
  WDATA = {32'hDEADBEEF, 32'hXXXX_XXXX}

The slave uses WSTRB to determine which bytes to write.
```

### 4.7 Exclusive Access (Atomic Operations)

Exclusive access implements atomic read-modify-write operations (like CAS, LL/SC):

```
Step 1: Exclusive Read
  ARLOCK = 1 (exclusive)
  Master reads address X -> gets value V
  Slave/monitor records: "Master M has exclusive access to address X"

Step 2: Exclusive Write
  AWLOCK = 1 (exclusive)
  Master writes new value to address X
  Slave checks: "Does Master M still have exclusive access to X?"
    YES: Write succeeds, BRESP = EXOKAY (01)
    NO:  Write fails (another master wrote X), BRESP = OKAY (00)
         Master must retry the entire read-modify-write sequence

This is the hardware mechanism behind:
  - ARM LDREX/STREX instructions
  - Atomic compare-and-swap
  - Spinlock implementation
```

### 4.8 AXI QoS (Quality of Service)

```
AxQOS[3:0]: 4-bit priority signal
  0x0 = Lowest priority
  0xF = Highest priority

Used by interconnect arbiters:
  When two masters compete for the same slave, the one with higher QoS wins.

Typical assignments:
  Display controller: QoS = 0xC (high, must not be starved -> screen tearing)
  CPU data:           QoS = 0x8 (medium-high)
  CPU instruction:    QoS = 0x6 (medium)
  DMA background:     QoS = 0x2 (low)
  Debug/trace:        QoS = 0x0 (lowest)

Dynamic QoS: Some masters adjust QoS based on buffer fill level:
  If display FIFO is nearly empty -> raise QoS to 0xF (urgent!)
  If display FIFO is full -> lower QoS to 0x4 (not urgent)
```

---

## 5. AXI Outstanding and Interleaving

### 5.1 Outstanding Transactions -- Timing Diagram

```
Without outstanding (1 at a time):
Cycle:  1  2  3  4  5  6  7  8  9  10 11 12 13 14 15 16
AR:    [A0]                     [A1]                     [A2]
R:              [D0][D0][D0][D0]        [D1][D1][D1][D1]

Total: 16 cycles for 3 reads (4-beat bursts, 4-cycle latency)

With 3 outstanding:
Cycle:  1  2  3  4  5  6  7  8  9  10 11 12
AR:    [A0][A1][A2]
R:              [D0][D0][D0][D0][D1][D1][D1][D1][D2][D2][D2][D2]

Total: 12 cycles for 3 reads (latency of first hidden by subsequent addresses)
```

**Throughput improvement:** Outstanding transactions hide the address-to-data latency. The bus stays busy while waiting for slow memory responses. For DDR with 10-cycle latency:

```
Without outstanding: Efficiency = burst_length / (burst_length + latency)
  = 4 / (4 + 10) = 28.6%

With 3 outstanding: Efficiency = 3 * burst_length / (3 * burst_length + latency)
  = 12 / (12 + 10) = 54.5%

With 8 outstanding: Efficiency = 32 / (32 + 10) = 76.2%
```

### 5.2 Out-of-Order Completion with Different IDs

```
Master issues (all 1-beat reads for simplicity):
  Read A0 (ID=0) -> to fast SRAM (2-cycle latency)
  Read A1 (ID=1) -> to slow DDR (10-cycle latency)
  Read A2 (ID=0) -> to fast SRAM (2-cycle latency)
  Read A3 (ID=2) -> to medium flash (5-cycle latency)

Without OoO (strict in-order):
Cycle:  1    2    3    12   13   15   20
AR:    [A0] [A1] [A2]                 [A3]
R:               [D0]          [D1]        [D2] .... [D3]
  D1 blocks D2 even though D2 is ready!

With OoO:
Cycle:  1    2    3    4    5    8    12
AR:    [A0] [A1] [A2] [A3]
R:               [D0]      [D2][D3]       [D1]
  D0 (ID=0) returns first (fast SRAM)
  D2 (ID=0) returns next (same ID, must be after D0 -- and it is)
  D3 (ID=2) returns (different ID, can be before D1)
  D1 (ID=1) returns last (slow DDR)

Ordering maintained:
  ID=0: D0 before D2 (correct)
  ID=1: D1 alone (correct)
  ID=2: D3 alone (correct)
  Cross-ID: no ordering required
```

### 5.3 Write Interleaving (AXI3 Only, Removed in AXI4)

```
AXI3 allowed write data from different transactions to interleave on
the W channel, identified by WID:

Cycle:  1    2    3    4    5    6
AW:    [A0,ID=0] [A1,ID=1]
W:     [D0a,WID=0] [D1a,WID=1] [D0b,WID=0] [D1b,WID=1]

D0a and D0b belong to transaction 0 (interleaved with transaction 1)

AXI4 removed this:
  - WID signal removed
  - Write data must follow same order as write addresses
  - Simplifies slave and interconnect significantly
  - Rarely used in practice (complex, error-prone)
```

---

## 6. AXI4-Lite

### 6.1 Removed Signals (vs AXI4 Full)

| Removed | Reason |
|---------|--------|
| AxID    | No transaction IDs (single outstanding implied) |
| AxLEN   | Always 0 (single beat, no burst) |
| AxSIZE  | Always full data width |
| AxBURST | Always INCR (doesn't matter with 1 beat) |
| AxLOCK  | No exclusive access |
| AxCACHE | No cache attributes |
| AxQOS   | No QoS |
| AxREGION| No region |
| WID     | Removed (same as AXI4) |
| WLAST   | Always 1 (single beat) |
| RLAST   | Always 1 (single beat) |

### 6.2 Retained Signals

```
AW channel: AWADDR, AWPROT, AWVALID, AWREADY
W  channel: WDATA, WSTRB, WVALID, WREADY
B  channel: BRESP, BVALID, BREADY
AR channel: ARADDR, ARPROT, ARVALID, ARREADY
R  channel: RDATA, RRESP, RVALID, RREADY
```

### 6.3 When to Use AXI4-Lite

```
- Control/status register interfaces (CSR) for IP blocks
- Configuration registers (written once or infrequently)
- Simple peripherals (UART, SPI, GPIO, timer)
- Any interface where burst and outstanding are not needed
- Reduces gate count of slave by 50-70% vs full AXI4
```

---

## 7. AXI4-Stream

### 7.1 Complete Signal List

| Signal  | Width      | Direction     | Description                                |
|---------|------------|---------------|--------------------------------------------|
| TVALID  | 1          | Source->Sink  | Data valid                                 |
| TREADY  | 1          | Sink->Source  | Sink ready (backpressure)                  |
| TDATA   | DATA_WIDTH | Source->Sink  | Data payload                               |
| TSTRB   | DATA_W/8   | Source->Sink  | Byte qualifier (position vs data)          |
| TKEEP   | DATA_W/8   | Source->Sink  | Byte qualifier (null vs valid)             |
| TLAST   | 1          | Source->Sink  | End of packet/frame                        |
| TID     | ID_WIDTH   | Source->Sink  | Stream identifier                          |
| TDEST   | DEST_WIDTH | Source->Sink  | Destination routing info                   |
| TUSER   | USER_WIDTH | Source->Sink  | User-defined sideband                      |

### 7.2 TKEEP and TSTRB Semantics

```
TKEEP[i] | TSTRB[i] | Meaning
---------|----------|--------
    1    |    1     | Data byte: valid data at this position
    1    |    0     | Position byte: valid position, but data may be invalid
    0    |    0     | Null byte: not part of the transfer (padding)
    0    |    1     | Reserved (not used)
```

### 7.3 Packet-Based Transfers

```
Source ──TDATA/TVALID──> Sink

Packet 1:
  TDATA: [H1][H2][P1][P2][P3][P4]
  TLAST:   0   0   0   0   0   1      <- TLAST marks end of packet
  TKEEP: 0xFF for all beats

Packet 2:
  TDATA: [H1][H2][P1]
  TLAST:   0   0   1
  TKEEP:  FF  FF  0F    <- Last beat only has 4 valid bytes (partial beat)
```

### 7.4 AXI-Stream FIFO (Simple Implementation)

```verilog
module axis_fifo #(
    parameter DATA_W = 64,
    parameter DEPTH  = 16
)(
    input  wire                aclk,
    input  wire                aresetn,

    // Slave interface (input)
    input  wire [DATA_W-1:0]   s_tdata,
    input  wire                s_tvalid,
    output wire                s_tready,
    input  wire                s_tlast,
    input  wire [DATA_W/8-1:0] s_tkeep,

    // Master interface (output)
    output wire [DATA_W-1:0]   m_tdata,
    output wire                m_tvalid,
    input  wire                m_tready,
    output wire                m_tlast,
    output wire [DATA_W/8-1:0] m_tkeep
);

    localparam AW = $clog2(DEPTH);
    localparam TOTAL_W = DATA_W + 1 + DATA_W/8;  // data + last + keep

    reg [TOTAL_W-1:0] mem [0:DEPTH-1];
    reg [AW:0] wr_ptr, rd_ptr;

    wire [AW:0] count = wr_ptr - rd_ptr;
    wire full  = (count == DEPTH);
    wire empty = (count == 0);

    // Write
    always @(posedge aclk or negedge aresetn) begin
        if (!aresetn)
            wr_ptr <= 0;
        else if (s_tvalid && s_tready) begin
            mem[wr_ptr[AW-1:0]] <= {s_tkeep, s_tlast, s_tdata};
            wr_ptr <= wr_ptr + 1;
        end
    end

    // Read
    always @(posedge aclk or negedge aresetn) begin
        if (!aresetn)
            rd_ptr <= 0;
        else if (m_tvalid && m_tready)
            rd_ptr <= rd_ptr + 1;
    end

    wire [TOTAL_W-1:0] rd_word = mem[rd_ptr[AW-1:0]];

    assign s_tready = !full;
    assign m_tvalid = !empty;
    assign m_tdata  = rd_word[DATA_W-1:0];
    assign m_tlast  = rd_word[DATA_W];
    assign m_tkeep  = rd_word[TOTAL_W-1:DATA_W+1];

endmodule
```

---

## 8. Interconnect and Crossbar Design

### 8.1 Topologies Comparison

| Topology    | Concurrent Paths | Latency   | Area         | Scalability | Use Case          |
|-------------|-----------------|-----------|--------------|-------------|-------------------|
| Shared bus  | 1               | 1 arb     | O(M+S)       | Poor        | Legacy, simple    |
| Crossbar    | min(M,S)        | 1 arb     | O(M*S)       | Moderate    | SoC interconnect  |
| Ring        | Depends         | O(N/2)    | O(N)         | Good        | Network-on-Chip   |
| Mesh/NoC    | Many            | O(sqrt(N))| O(N)         | Excellent   | Many-core, GPU    |

### 8.2 Crossbar Arbitration Schemes

**Round-Robin:**

```
Cycle 1: Grant to Master 0
Cycle 2: Grant to Master 1
Cycle 3: Grant to Master 2
Cycle 4: Grant to Master 0 (wrap)

Fair: every master gets equal share
No starvation
Simple implementation (rotating priority register)
May not be optimal for real-time masters (no priority)
```

**Fixed Priority:**

```
Master 0 > Master 1 > Master 2 > Master 3

Master 0 always wins if it has a request.
Simple, lowest latency for high-priority master.
Can starve low-priority masters!
Not suitable unless high-priority traffic is bursty (not sustained).
```

**Weighted Round-Robin:**

```
Master 0: weight 4 (gets 4 out of 8 slots)
Master 1: weight 2 (gets 2 out of 8 slots)
Master 2: weight 1
Master 3: weight 1

Schedule: M0, M0, M1, M0, M0, M2, M1, M3, repeat

Combines fairness with differentiated service.
Used in most commercial interconnects.
```

### 8.3 Address Decoding

```
Address map example:
  0x0000_0000 - 0x0FFF_FFFF: DDR Controller (Slave 0)
  0x1000_0000 - 0x1000_FFFF: SRAM (Slave 1)
  0x2000_0000 - 0x2000_0FFF: UART (Slave 2, via APB bridge)
  0x2000_1000 - 0x2000_1FFF: SPI (Slave 3, via APB bridge)
  0x3000_0000 - 0x3FFF_FFFF: GPU (Slave 4)

Decoder logic:
  assign sel_ddr  = (ARADDR[31:28] == 4'h0);
  assign sel_sram = (ARADDR[31:16] == 16'h1000);
  assign sel_uart = (ARADDR[31:12] == 20'h20000);
  assign sel_spi  = (ARADDR[31:12] == 20'h20001);
  assign sel_gpu  = (ARADDR[31:28] == 4'h3);
  assign sel_default = ~(sel_ddr | sel_sram | sel_uart | sel_spi | sel_gpu);
```

### 8.4 ID Width Expansion in Interconnect

```
Master 0 issues: AWID = 4'b0101
Master 1 issues: AWID = 4'b0101

If both reach the same slave, the slave sees two transactions with the
same ID and must return responses in order -> conflict!

Solution: Interconnect prepends master ID bits:
  Master 0's transaction: AWID at slave = {2'b00, 4'b0101} = 6'b00_0101
  Master 1's transaction: AWID at slave = {2'b01, 4'b0101} = 6'b01_0101

Now they have different IDs at the slave, so responses can be independent.
The interconnect strips the prepended bits when routing responses back.

ID width at slave = ID_WIDTH + log2(num_masters)
```

---

## 9. Bus Bridge Design

### 9.1 AXI-to-APB Bridge -- Detailed Design

**Challenge:** AXI supports burst, outstanding, and is high-frequency. APB is 2-cycle per transfer, single-outstanding, and low-frequency.

```verilog
module axi2apb_bridge #(
    parameter ADDR_W = 32,
    parameter DATA_W = 32
)(
    // AXI Slave interface
    input  wire             ACLK,
    input  wire             ARESETn,
    // AW channel
    input  wire [ADDR_W-1:0] AWADDR,
    input  wire [7:0]       AWLEN,
    input  wire             AWVALID,
    output reg              AWREADY,
    // W channel
    input  wire [DATA_W-1:0] WDATA,
    input  wire [DATA_W/8-1:0] WSTRB,
    input  wire             WLAST,
    input  wire             WVALID,
    output reg              WREADY,
    // B channel
    output reg  [1:0]       BRESP,
    output reg              BVALID,
    input  wire             BREADY,
    // AR channel
    input  wire [ADDR_W-1:0] ARADDR,
    input  wire [7:0]       ARLEN,
    input  wire             ARVALID,
    output reg              ARREADY,
    // R channel
    output reg  [DATA_W-1:0] RDATA,
    output reg  [1:0]       RRESP,
    output reg              RLAST,
    output reg              RVALID,
    input  wire             RREADY,

    // APB Master interface
    output reg  [ADDR_W-1:0] PADDR,
    output reg              PSEL,
    output reg              PENABLE,
    output reg              PWRITE,
    output reg  [DATA_W-1:0] PWDATA,
    output reg  [DATA_W/8-1:0] PSTRB,
    input  wire [DATA_W-1:0] PRDATA,
    input  wire             PREADY,
    input  wire             PSLVERR
);

    // State machine
    localparam S_IDLE    = 3'd0;
    localparam S_WR_SETUP = 3'd1;
    localparam S_WR_ACCESS= 3'd2;
    localparam S_WR_RESP = 3'd3;
    localparam S_RD_SETUP = 3'd4;
    localparam S_RD_ACCESS= 3'd5;
    localparam S_RD_RESP = 3'd6;

    reg [2:0] state;
    reg [ADDR_W-1:0] addr_reg;
    reg [7:0] beat_cnt;
    reg [7:0] burst_len;
    reg is_write;
    reg [1:0] resp_accum;  // Accumulate worst error across burst

    always @(posedge ACLK or negedge ARESETn) begin
        if (!ARESETn) begin
            state     <= S_IDLE;
            AWREADY   <= 1'b0;
            WREADY    <= 1'b0;
            BVALID    <= 1'b0;
            ARREADY   <= 1'b0;
            RVALID    <= 1'b0;
            PSEL      <= 1'b0;
            PENABLE   <= 1'b0;
            beat_cnt  <= 0;
            resp_accum<= 2'b00;
        end else begin
            // Default deassertions
            AWREADY <= 1'b0;
            WREADY  <= 1'b0;
            ARREADY <= 1'b0;

            case (state)
                S_IDLE: begin
                    if (BVALID && BREADY) BVALID <= 1'b0;
                    if (RVALID && RREADY) RVALID <= 1'b0;

                    if (AWVALID && WVALID) begin
                        // Write takes priority (or use arbiter)
                        AWREADY   <= 1'b1;
                        WREADY    <= 1'b1;
                        addr_reg  <= AWADDR;
                        burst_len <= AWLEN;
                        beat_cnt  <= 0;
                        is_write  <= 1'b1;
                        resp_accum<= 2'b00;
                        // Setup APB write
                        PADDR     <= AWADDR;
                        PWDATA    <= WDATA;
                        PSTRB     <= WSTRB;
                        PWRITE    <= 1'b1;
                        PSEL      <= 1'b1;
                        PENABLE   <= 1'b0;
                        state     <= S_WR_SETUP;
                    end else if (ARVALID) begin
                        ARREADY   <= 1'b1;
                        addr_reg  <= ARADDR;
                        burst_len <= ARLEN;
                        beat_cnt  <= 0;
                        is_write  <= 1'b0;
                        resp_accum<= 2'b00;
                        // Setup APB read
                        PADDR     <= ARADDR;
                        PWRITE    <= 1'b0;
                        PSEL      <= 1'b1;
                        PENABLE   <= 1'b0;
                        state     <= S_RD_SETUP;
                    end
                end

                S_WR_SETUP: begin
                    PENABLE <= 1'b1;
                    state   <= S_WR_ACCESS;
                end

                S_WR_ACCESS: begin
                    if (PREADY) begin
                        if (PSLVERR) resp_accum <= 2'b10;  // SLVERR
                        PSEL    <= 1'b0;
                        PENABLE <= 1'b0;
                        if (beat_cnt == burst_len) begin
                            // Last beat done, send write response
                            BRESP  <= resp_accum | (PSLVERR ? 2'b10 : 2'b00);
                            BVALID <= 1'b1;
                            state  <= S_IDLE;
                        end else begin
                            // More beats: need next WDATA
                            beat_cnt <= beat_cnt + 1;
                            addr_reg <= addr_reg + (DATA_W/8);
                            WREADY   <= 1'b1;
                            state    <= S_WR_RESP;
                        end
                    end
                end

                S_WR_RESP: begin
                    if (WVALID) begin
                        WREADY  <= 1'b0;
                        PADDR   <= addr_reg;
                        PWDATA  <= WDATA;
                        PSTRB   <= WSTRB;
                        PWRITE  <= 1'b1;
                        PSEL    <= 1'b1;
                        PENABLE <= 1'b0;
                        state   <= S_WR_SETUP;
                    end
                end

                S_RD_SETUP: begin
                    PENABLE <= 1'b1;
                    state   <= S_RD_ACCESS;
                end

                S_RD_ACCESS: begin
                    if (PREADY) begin
                        RDATA  <= PRDATA;
                        RRESP  <= PSLVERR ? 2'b10 : 2'b00;
                        RLAST  <= (beat_cnt == burst_len);
                        RVALID <= 1'b1;
                        PSEL   <= 1'b0;
                        PENABLE<= 1'b0;
                        state  <= S_RD_RESP;
                    end
                end

                S_RD_RESP: begin
                    if (RVALID && RREADY) begin
                        RVALID <= 1'b0;
                        if (beat_cnt == burst_len) begin
                            state <= S_IDLE;
                        end else begin
                            beat_cnt <= beat_cnt + 1;
                            addr_reg <= addr_reg + (DATA_W/8);
                            PADDR    <= addr_reg + (DATA_W/8);
                            PWRITE   <= 1'b0;
                            PSEL     <= 1'b1;
                            PENABLE  <= 1'b0;
                            state    <= S_RD_SETUP;
                        end
                    end
                end
            endcase
        end
    end

endmodule
```

### 9.2 AHB-to-AXI Bridge Mapping

| AHB Feature          | AXI Mapping                                 |
|----------------------|---------------------------------------------|
| HTRANS NONSEQ       | New AXI burst (AW/AR channel transaction)    |
| HTRANS SEQ          | Subsequent beats in same AXI burst            |
| HTRANS BUSY         | No AXI equivalent (bridge absorbs the gap)    |
| HBURST SINGLE       | AXLEN=0, AXBURST=INCR                         |
| HBURST INCR4        | AXLEN=3, AXBURST=INCR                         |
| HBURST WRAP4        | AXLEN=3, AXBURST=WRAP                         |
| HBURST INCR (undef) | Bridge must determine length (buffer or look-ahead) |
| HSIZE               | Maps directly to AXSIZE                        |
| HREADY=0 wait       | AXI backpressure via READY deassertion         |
| HRESP ERROR         | BRESP/RRESP = SLVERR                           |
| HRESP RETRY/SPLIT   | No AXI equivalent (bridge retries internally)  |

**Key challenge:** AHB INCR bursts have undefined length. The bridge must either:
1. Buffer the entire burst, then issue a single AXI transaction (high latency).
2. Use look-ahead: watch HTRANS for the next beat to determine burst continuation.
3. Break into multiple AXI single-beat transactions (inefficient but safe).

---

## 10. Performance Analysis and Bandwidth Calculations

### 10.1 Theoretical Maximum Bandwidth

```
Bandwidth = Data_Width * Frequency / 8  (bytes/second)

AXI4, 64-bit data, 200 MHz:
  BW_max = 64 * 200M / 8 = 1.6 GB/s

AXI4, 128-bit data, 500 MHz:
  BW_max = 128 * 500M / 8 = 8.0 GB/s

AHB, 32-bit data, 100 MHz:
  BW_max = 32 * 100M / 8 = 400 MB/s (pipelined)
  BW_max = 32 * 100M / 8 / 2 = 200 MB/s (without pipelining, APB-style)

APB, 32-bit data, 50 MHz:
  BW_max = 32 * 50M / 8 / 2 = 100 MB/s (2 cycles per transfer)
```

### 10.2 Effective Bandwidth with Burst

```
AXI4, 64-bit data, 200 MHz, burst length 16 (INCR16):
  Per burst: 16 * 8 = 128 bytes
  Burst time: 16 cycles (data) + 1 cycle (address) = 17 cycles (ideal)
  Effective BW = 128 bytes / (17 * 5ns) = 128 / 85ns = 1.506 GB/s
  Efficiency = 1.506 / 1.6 = 94.1%

AXI4, 64-bit data, 200 MHz, burst length 1 (single):
  Per transfer: 8 bytes
  Transfer time: 1 cycle (data) + 1 cycle (address) = 2 cycles
  Effective BW = 8 bytes / (2 * 5ns) = 800 MB/s
  Efficiency = 800 / 1600 = 50%  (address overhead kills bandwidth!)

Lesson: Use long bursts for high bandwidth.
```

### 10.3 Bandwidth with Outstanding Transactions (DDR example)

```
DDR4 controller: 64-bit data, 200 MHz AXI, 40-cycle read latency

Without outstanding:
  Read: 40 cycles wait + 16 cycles data = 56 cycles per 128-byte burst
  BW = 128 / (56 * 5ns) = 457 MB/s  (28.6% of peak)

With 4 outstanding reads:
  Read pipeline: issue 4 addresses, then data streams back-to-back
  Average: ~16 cycles per burst (after pipeline fill)
  BW = 128 / (16 * 5ns) = 1.6 GB/s  (~100% of peak, after initial latency)

Outstanding transactions are ESSENTIAL for DDR performance!
```

### 10.4 Bandwidth for Dual-Channel DDR4-3200

```
DDR4-3200: 3200 MT/s (megatransfers per second)
Bus width: 64 bits = 8 bytes per transfer
Peak bandwidth per channel: 3200M * 8 = 25.6 GB/s
Dual channel: 51.2 GB/s peak

AXI interconnect to DDR controller:
  AXI clock: 800 MHz, 256-bit data path
  AXI peak: 256/8 * 800M = 25.6 GB/s per AXI port

To saturate dual-channel DDR4-3200, need two AXI ports or
one wider port (512-bit) or higher frequency.
```

---

## 11. Interview Questions & Answers

### Q1: What are the main differences between APB, AHB, and AXI?

**A:** APB is non-pipelined, 2-cycle minimum per transfer, for low-bandwidth peripherals. AHB is address-pipelined (address phase overlaps previous data phase, achieving 1 transfer/cycle), supports bursts, and has a single shared bus. AXI4 has 5 independent channels (2 for writes, 2 for reads, 1 for write response), supporting simultaneous read+write, outstanding transactions (multiple in-flight), out-of-order completion (via IDs), and bursts up to 256 beats. Complexity and throughput increase from APB to AHB to AXI.

### Q2: Explain AXI's VALID/READY handshake rules and why they prevent deadlock.

**A:** The critical rule: VALID must NOT depend on READY (the source asserts VALID when it has data, regardless of the sink's state). READY MAY depend on VALID. This breaks the potential circular dependency: if both waited for each other, neither would assert and the bus would deadlock. Transfer occurs on the clock edge when both VALID and READY are high. Additionally, once VALID is asserted, it must remain high until the handshake completes (no dropping data). The signal payload must also remain stable while VALID is high and READY is low.

### Q3: Calculate the bandwidth of an AXI4 64-bit interface at 200MHz with burst length 16.

**A:** Peak bandwidth = 64b/8 * 200M = 1.6 GB/s. With INCR16 bursts: each burst transfers 16*8=128 bytes, taking 16 data cycles + 1 address cycle = 17 cycles. Effective BW = 128/(17*5ns) = 1.506 GB/s = 94.1% efficiency. With single-beat transfers: 8 bytes per 2 cycles (addr+data) = 800 MB/s = 50% efficiency. With 4 outstanding INCR16 reads and 40-cycle DDR latency: after pipeline fill, the data channel stays saturated at 1.6 GB/s. Outstanding transactions are essential for high-latency memories.

### Q4: Explain WRAP burst with a numerical address calculation.

**A:** WRAP bursts increment and wrap at a boundary. Formula: Wrap_Boundary = floor(Start_Addr / (burst_len * bytes_per_beat)) * burst_len * bytes_per_beat. Example: ARADDR=0x34, ARSIZE=2 (4B), ARLEN=3 (4 beats). Wrap size = 4*4 = 16B. Boundary = floor(0x34/16)*16 = 0x30. Range: 0x30-0x3F. Beats: 0x34, 0x38, 0x3C, 0x30 (wraps). Use case: cache line fill starting at the critical word (the CPU needs 0x34 immediately, then the rest of the line fills around it).

### Q5: What are outstanding transactions and how do they improve throughput?

**A:** Outstanding transactions allow the master to issue multiple addresses before receiving responses. Without outstanding: the master waits for each response before issuing the next address, leaving the bus idle during memory latency. With N outstanding: N addresses can be in flight simultaneously, hiding latency by overlapping memory access with address issue. For DDR with 40-cycle latency and 16-beat bursts: without outstanding, efficiency = 16/(16+40) = 28.6%. With 4 outstanding: data pipeline fills after initial latency, achieving near-100% data channel utilization. The max outstanding depth is a design parameter of the master and interconnect.

### Q6: How does out-of-order completion work? Give an example.

**A:** Each transaction has an ID (AxID). Transactions with DIFFERENT IDs may complete in any order. Same-ID transactions must complete in order. Example: Master issues Read A (ID=0, to slow DDR), Read B (ID=1, to fast SRAM), Read C (ID=0, to SRAM). Response order can be: B first (ID=1, fast), then A (ID=0, slow), then C (ID=0, after A -- same ID ordering preserved). The master uses the returned RID/BID to match responses to requests. This prevents fast slaves from being blocked behind slow ones, improving overall bus utilization.

### Q7: Explain AHB pipelining. Why does HREADY affect both current and next transfer?

**A:** AHB overlaps the address phase of transfer N+1 with the data phase of transfer N. When HREADY=0, the slave is not done with the current data phase, so: (1) the current data phase extends (data not ready yet); (2) the next address phase is also stalled (the slave can't accept a new address while processing the current one). The master must hold HADDR, HTRANS, and other address-phase signals stable when HREADY=0. This creates a synchronized pipeline stall. The single HREADY signal controls both phases simultaneously, which is simpler than AXI's per-channel flow control but limits concurrency.

### Q8: Why was write interleaving removed in AXI4?

**A:** AXI3's write interleaving allowed write data from different transactions (identified by WID) to interleave on the W channel. This was: (1) Extremely complex to implement in slaves (need per-ID write buffers and arbitration); (2) Rarely used in practice (most masters don't interleave writes); (3) Error-prone (mismatch between AW and W ordering causes data corruption); (4) Added significant gate count. AXI4 requires write data to follow the same order as write addresses, removes WID entirely, and dramatically simplifies slave design. For use cases that need write interleaving, the interconnect can re-order transactions externally.

### Q9: Design an AXI-to-APB bridge. What are the key challenges?

**A:** The bridge is an AXI slave and APB master. Key challenges: (1) AXI bursts vs APB single-beat: the bridge must break AXI bursts into individual APB 2-cycle transfers, tracking beat count and generating incremented addresses; (2) AXI outstanding vs APB single-outstanding: the bridge can only process one APB transfer at a time, so it must backpressure the AXI side; (3) Error accumulation: if any APB beat returns PSLVERR, the bridge must propagate error via BRESP/RRESP; (4) Clock domain crossing: if AXI and APB are on different clocks, the bridge needs synchronizers; (5) Write response: the bridge must wait for ALL APB beats to complete before sending BRESP on the B channel.

### Q10: What is AXI exclusive access and how does it implement atomic operations?

**A:** Exclusive access provides hardware support for atomic read-modify-write. The master performs an exclusive read (ARLOCK=1) to get the current value. An exclusive monitor at the slave (or interconnect) records the access. The master computes the new value and performs an exclusive write (AWLOCK=1). The monitor checks if any other master has written to the same address since the exclusive read. If not, the write succeeds (BRESP=EXOKAY). If another write occurred, the write fails (BRESP=OKAY, normal), and the master must retry the entire sequence. This implements the LL/SC (Load-Linked/Store-Conditional) primitive used for spinlocks, semaphores, and atomic operations.

### Q11: How does AXI ID width expansion work in an interconnect?

**A:** When multiple masters connect to the same slave through an interconnect, their ID spaces may overlap (e.g., both use ID=5). The interconnect prepends master-identification bits to the ID. If master 0 sends AWID=4'b0101 and master 1 sends AWID=4'b0101, the slave sees AWID=6'b00_0101 and AWID=6'b01_0101 respectively (different IDs, independent ordering). On the response path, the interconnect strips the prepended bits before routing to the master. This ensures: (1) the slave sees all transactions with unique IDs; (2) OoO completion works correctly; (3) the master's ID space is preserved. Width at slave = master_ID_width + log2(num_masters).

### Q12: Compare crossbar and shared bus interconnect architectures.

**A:** Shared bus: one transaction at a time, all masters and slaves on the same bus, arbiter selects one master per cycle. Bandwidth = 1 * data_width * freq. Simple, low area, O(M+S) wires. Crossbar: parallel paths between any master-slave pair (up to min(M,S) simultaneous transactions). Bandwidth = min(M,S) * data_width * freq. Area = O(M*S) MUXes and arbiters. A 4-master/4-slave crossbar can achieve 4x the bandwidth of a shared bus. The trade-off is area: a 16x16 crossbar has 256 crosspoints and 16 arbiters. Modern SoCs use partial crossbar (common paths share resources) or NoC (mesh routing) to balance area and bandwidth.

### Q13: What is a default slave and why is it needed?

**A:** The default slave handles accesses to unmapped address regions. Without it, if a master accesses an address that no slave recognizes, no slave drives HREADY (AHB) or asserts any response (AXI), causing the bus to hang indefinitely. The default slave always responds with an error (HRESP=ERROR on AHB, RRESP/BRESP=DECERR on AXI) and completes the transaction. It's automatically selected by the address decoder when no other slave matches. Every bus system must include one.

### Q14: Explain narrow transfers in AXI. How does WSTRB work?

**A:** A narrow transfer occurs when AWSIZE < the data bus width. For example, a 32-bit write on a 64-bit bus (AWSIZE=2, bus=64b). WSTRB has one bit per byte lane (8 bits for 64-bit bus). Only the byte lanes with WSTRB=1 are written. For a 32-bit write to address 0x1000 (lower word): WSTRB=8'b0000_1111 (low 4 bytes active). For address 0x1004 (upper word): WSTRB=8'b1111_0000 (high 4 bytes active). The slave must use WSTRB to determine which bytes to update, NOT the address alone. WSTRB also enables unaligned writes and sparse byte updates.

### Q15: How does AXI4-Stream differ from AXI4? When do you use it?

**A:** AXI4-Stream has NO address channel -- it's for unidirectional data streaming. One TVALID/TREADY data channel with TLAST (end of packet), TKEEP/TSTRB (byte qualifiers), TID (stream ID), TDEST (routing). Use it for: video pixel streams, DSP filter chains, DMA data paths, network packet processing, any point-to-point data flow where addresses are irrelevant. AXI4 is for memory-mapped access (read/write to specific addresses). AXI4-Stream can achieve 100% data channel utilization (no address overhead) making it ideal for high-throughput datapaths.

### Q16: Explain AHB split/retry. When is split better than retry?

**A:** Both handle slow slaves. RETRY: slave returns a 2-cycle error response, master immediately retries. Simple but the master keeps requesting the bus, wasting cycles polling. SPLIT: slave returns a 2-cycle error response AND tells the arbiter to remove this master from the pending list. The slave signals HSPLIT when ready, and the arbiter re-grants. Split is better when: the slave latency is long and unpredictable (external memory, interrupt-driven devices). Retry is simpler but wastes bus bandwidth with repeated failed attempts. In practice, AHB-Lite (most common variant) removes split/retry entirely.

### Q17: How do you choose between AXI4-Lite and AXI4 for an IP interface?

**A:** Use AXI4-Lite for simple register interfaces where: (1) only single-beat access is needed (no burst); (2) low bandwidth is sufficient (configuration, status); (3) no outstanding or OoO is needed; (4) gate count is a concern (AXI4-Lite slave is 50-70% smaller). Use full AXI4 when: (1) burst access is needed (DMA, memory controllers); (2) high bandwidth is required; (3) multiple outstanding transactions improve performance; (4) OoO completion is beneficial (multi-port slaves). Many SoCs use AXI4-Lite for all peripheral CSR blocks and AXI4 for memory-mapped high-performance paths, connected through an AXI4-to-AXI4-Lite bridge where needed.

### Q18: What is the AXI ordering model for reads and writes?

**A:** Within the same ID: reads are ordered, writes are ordered, but there is NO ordering between reads and writes. Cross-ID: no ordering at all. This means a read issued after a write (same address, same ID) may return STALE data if the write hasn't been committed yet. The master must explicitly wait for the write response (B channel) before issuing the read if it needs to see the updated value. At the system level, memory barriers (DMB on ARM) enforce ordering by preventing the CPU from issuing new transactions until previous ones complete.

### Q19: How does QoS work in practice? Give a real scenario.

**A:** A display controller reading frame buffer data must never stall (causes visible tearing). It has a line buffer that holds 1-2 scan lines. The display reads one line while displaying another. If the line buffer runs empty, the display shows garbage. Solution: display master sets AxQOS=0xC (high). CPU sets AxQOS=0x8. DMA sets AxQOS=0x4. When display and CPU both request DDR access, the interconnect's QoS-aware arbiter prioritizes the display. Advanced: dynamic QoS -- the display monitors its line buffer fill level. If fill < 25%, raise QoS to 0xF (urgent). If fill > 75%, lower QoS to 0x4 (not urgent, share bandwidth with others). This prevents both starvation and over-allocation.

### Q20: What signal integrity concerns exist in high-frequency AXI interfaces?

**A:** At 500MHz+ AXI: (1) The VALID-to-READY combinational path (if READY depends on VALID) creates a long timing path across the interconnect -- insert register slices to break timing. Register slices add 1 cycle latency but enable higher frequency. (2) Wide data buses (512-bit) have high capacitance and crosstalk -- careful routing with shielding. (3) ID width expansion increases wire count -- consider ID remapping to keep widths manageable. (4) AXI protocol bridges (clock/width conversion) must handle handshake timing carefully across clock domains. (5) For chiplet or die-to-die AXI (e.g., UCIe), serialization and retiming add significant complexity.
